
T59B0 000:699 SEGGER J-Link V5.00k Log File (0024ms, 0336ms total)
T59B0 000:699 DLL Compiled: Jul 31 2015 15:48:52 (0024ms, 0336ms total)
T59B0 000:699 Logging started @ 2018-10-17 11:04 (0024ms, 0336ms total)
T59B0 000:723 JLINK_SetWarnOutHandler(...) (0000ms, 0336ms total)
T59B0 000:723 JLINK_OpenEx(...)
Firmware: J-Link ARM V8 compiled Nov 28 2014 13:44:46
Hardware: V8.00
S/N: 788594195
Feature(s): RDI,FlashDL,FlashBP,JFlash,GDB  returns O.K. (0292ms, 0628ms total)
T59B0 001:015 JLINK_SetErrorOutHandler(...) (0000ms, 0628ms total)
T59B0 001:015 JLINK_ExecCommand("ProjectFile = "C:\autoflight   wvl\AF_MCU2  udp http air code\Output\Project\JLinkSettings.ini"", ...)  returns 0x00 (0016ms, 0644ms total)
T59B0 001:062 JLINK_ExecCommand("Device = STM32F407VG", ...)Device "STM32F407VG" selected.  returns 0x00 (0142ms, 0786ms total)
T59B0 001:204 JLINK_ExecCommand("DisableConnectionTimeout", ...)  returns 0x01 (0000ms, 0786ms total)
T59B0 001:204 JLINK_GetHardwareVersion()  returns 0x13880 (0000ms, 0786ms total)
T59B0 001:204 JLINK_GetDLLVersion()  returns 50011 (0001ms, 0787ms total)
T59B0 001:205 JLINK_GetFirmwareString(...) (0000ms, 0787ms total)
T59B0 001:354 JLINK_GetDLLVersion()  returns 50011 (0000ms, 0787ms total)
T59B0 001:354 JLINK_GetCompileDateTime() (0000ms, 0787ms total)
T59B0 001:382 JLINK_GetFirmwareString(...) (0000ms, 0787ms total)
T59B0 001:408 JLINK_GetHardwareVersion()  returns 0x13880 (0000ms, 0787ms total)
T59B0 001:549 JLINK_TIF_Select(JLINKARM_TIF_SWD)  returns 0x00 (0002ms, 0789ms total)
T59B0 001:551 JLINK_SetSpeed(5000) (0000ms, 0789ms total)
T59B0 001:551 JLINK_GetId() >0x108 TIF>Found SWD-DP with ID 0x2BA01477 >0x0D TIF> >0x28 TIF> >0x0D TIF> >0x28 TIF> >0x0D TIF> >0x21 TIF> >0x0D TIF> >0x28 TIF> >0x0D TIF> >0x28 TIF> >0x0D TIF> >0x28 TIF> >0x0D TIF> >0x21 TIF> >0x0D TIF> >0x21 TIF> >0x0D TIF> >0x28 TIF> >0x0D TIF> >0x21 TIF> >0x0D TIF> >0x21 TIF> >0x0D TIF> >0x28 TIF> >0x0D TIF> >0x28 TIF> >0x0D TIF> >0x28 TIF> >0x0D TIF> >0x21 TIF> >0x0D TIF> >0x21 TIF> >0x0D TIF> >0x28 TIF> >0x0D TIF> >0x28 TIF> >0x108 TIF>Found SWD-DP with ID 0x2BA01477
 >0x0D TIF> >0x21 TIF> >0x0D TIF> >0x28 TIF> >0x0D TIF> >0x28 TIF> >0x0D TIF> >0x21 TIF> >0x0D TIF> >0x28 TIF> >0x0D TIF> >0x21 TIF> >0x0D TIF> >0x21 TIF> >0x0D TIF> >0x21 TIF> >0x0D TIF> >0x21 TIF> >0x0D TIF> >0x28 TIF> >0x0D TIF> >0x28 TIF> >0x0D TIF> >0x21 TIF> >0x0D TIF> >0x28 TIF> >0x0D TIF> >0x28 TIF> >0x0D TIF> >0x28 TIF> >0x0D TIF> >0x21 TIF> >0x0D TIF> >0x21 TIF> >0x0D TIF> >0x28 TIF> >0x0D TIF> >0x21 TIF> >0x0D TIF> >0x21 TIF>Found Cortex-M4 r0p1, Little endian.
 -- CPU_WriteMem(4 bytes @ 0xE0002000) -- CPU_ReadMem(4 bytes @ 0xE000EDF0) -- CPU_WriteMem(4 bytes @ 0xE000EDF0) -- CPU_ReadMem(4 bytes @ 0xE0002000)FPUnit: 6 code (BP) slots and 2 literal slots -- CPU_ReadMem(4 bytes @ 0xE000EDFC) -- CPU_WriteMem(4 bytes @ 0xE000EDFC) -- CPU_ReadMem(4 bytes @ 0xE0001000) -- CPU_WriteMem(4 bytes @ 0xE0001000) -- CPU_ReadMem(4 bytes @ 0xE000ED88) -- CPU_WriteMem(4 bytes @ 0xE000ED88) -- CPU_ReadMem(4 bytes @ 0xE000ED88) -- CPU_WriteMem(4 bytes @ 0xE000ED88)
CoreSight components:ROMTbl 0 @ E00FF000 -- CPU_ReadMem(16 bytes @ 0xE00FF000) -- CPU_ReadMem(16 bytes @ 0xE000EFF0) -- CPU_ReadMem(16 bytes @ 0xE000EFE0)ROMTbl 0 [0]: FFF0F000, CID: B105E00D, PID: 000BB00C SCS -- CPU_ReadMem(16 bytes @ 0xE0001FF0) -- CPU_ReadMem(16 bytes @ 0xE0001FE0)ROMTbl 0 [1]: FFF02000, CID: B105E00D, PID: 003BB002 DWT -- CPU_ReadMem(16 bytes @ 0xE0002FF0) -- CPU_ReadMem(16 bytes @ 0xE0002FE0)ROMTbl 0 [2]: FFF03000, CID: B105E00D, PID: 002BB003 FPB
 -- CPU_ReadMem(16 bytes @ 0xE0000FF0) -- CPU_ReadMem(16 bytes @ 0xE0000FE0)ROMTbl 0 [3]: FFF01000, CID: B105E00D, PID: 003BB001 ITM -- CPU_ReadMem(16 bytes @ 0xE00FF010) -- CPU_ReadMem(16 bytes @ 0xE0040FF0) -- CPU_ReadMem(16 bytes @ 0xE0040FE0)ROMTbl 0 [4]: FFF41000, CID: B105900D, PID: 000BB9A1 TPIU -- CPU_ReadMem(16 bytes @ 0xE0041FF0) -- CPU_ReadMem(16 bytes @ 0xE0041FE0)ROMTbl 0 [5]: FFF42000, CID: B105900D, PID: 000BB925 ETM >0x0D TIF> >0x21 TIF>  returns 0x2BA01477 (0546ms, 1335ms total)
T59B0 002:098 JLINK_GetDLLVersion()  returns 50011 (0000ms, 1335ms total)
T59B0 002:098 JLINK_CORE_GetFound()  returns 0xE0000FF (0001ms, 1336ms total)
T59B0 002:099 JLINK_GetDebugInfo(0x100) -- Value=0xE00FF003  returns 0x00 (0000ms, 1336ms total)
T59B0 002:144 JLINK_ReadMem (0xE00FF000, 0x0020 Bytes, ...) -- CPU is running -- CPU_ReadMem(32 bytes @ 0xE00FF000) - Data: 03 F0 F0 FF 03 20 F0 FF 03 30 F0 FF 03 10 F0 FF ...  returns 0x00 (0001ms, 1338ms total)
T59B0 002:145 JLINK_ReadMem (0xE000EFF0, 0x0010 Bytes, ...) -- CPU is running -- CPU_ReadMem(16 bytes @ 0xE000EFF0) - Data: 0D 00 00 00 E0 00 00 00 05 00 00 00 B1 00 00 00  returns 0x00 (0002ms, 1340ms total)
T59B0 002:147 JLINK_ReadMem (0xE000EFD0, 0x0020 Bytes, ...) -- CPU is running -- CPU_ReadMem(32 bytes @ 0xE000EFD0) - Data: 04 00 00 00 00 00 00 00 00 00 00 00 00 00 00 00 ...  returns 0x00 (0001ms, 1341ms total)
T59B0 002:148 JLINK_ReadMem (0xE0001FF0, 0x0010 Bytes, ...) -- CPU is running -- CPU_ReadMem(16 bytes @ 0xE0001FF0) - Data: 0D 00 00 00 E0 00 00 00 05 00 00 00 B1 00 00 00  returns 0x00 (0002ms, 1343ms total)
T59B0 002:150 JLINK_ReadMem (0xE0001FD0, 0x0020 Bytes, ...) -- CPU is running -- CPU_ReadMem(32 bytes @ 0xE0001FD0) - Data: 04 00 00 00 00 00 00 00 00 00 00 00 00 00 00 00 ...  returns 0x00 (0001ms, 1344ms total)
T59B0 002:151 JLINK_ReadMem (0xE0002FF0, 0x0010 Bytes, ...) -- CPU is running -- CPU_ReadMem(16 bytes @ 0xE0002FF0) - Data: 0D 00 00 00 E0 00 00 00 05 00 00 00 B1 00 00 00  returns 0x00 (0002ms, 1346ms total)
T59B0 002:153 JLINK_ReadMem (0xE0002FD0, 0x0020 Bytes, ...) -- CPU is running -- CPU_ReadMem(32 bytes @ 0xE0002FD0) - Data: 04 00 00 00 00 00 00 00 00 00 00 00 00 00 00 00 ...  returns 0x00 (0001ms, 1347ms total)
T59B0 002:154 JLINK_ReadMem (0xE0000FF0, 0x0010 Bytes, ...) -- CPU is running -- CPU_ReadMem(16 bytes @ 0xE0000FF0) - Data: 0D 00 00 00 E0 00 00 00 05 00 00 00 B1 00 00 00  returns 0x00 (0001ms, 1348ms total)
T59B0 002:155 JLINK_ReadMem (0xE0000FD0, 0x0020 Bytes, ...) -- CPU is running -- CPU_ReadMem(32 bytes @ 0xE0000FD0) - Data: 04 00 00 00 00 00 00 00 00 00 00 00 00 00 00 00 ...  returns 0x00 (0001ms, 1349ms total)
T59B0 002:157 JLINK_ReadMem (0xE0040FF0, 0x0010 Bytes, ...) -- CPU is running -- CPU_ReadMem(16 bytes @ 0xE0040FF0) - Data: 0D 00 00 00 90 00 00 00 05 00 00 00 B1 00 00 00  returns 0x00 (0001ms, 1350ms total)
T59B0 002:158 JLINK_ReadMem (0xE0040FD0, 0x0020 Bytes, ...) -- CPU is running -- CPU_ReadMem(32 bytes @ 0xE0040FD0) - Data: 04 00 00 00 00 00 00 00 00 00 00 00 00 00 00 00 ...  returns 0x00 (0001ms, 1351ms total)
T59B0 002:159 JLINK_ReadMem (0xE0041FF0, 0x0010 Bytes, ...) -- CPU is running -- CPU_ReadMem(16 bytes @ 0xE0041FF0) - Data: 0D 00 00 00 90 00 00 00 05 00 00 00 B1 00 00 00  returns 0x00 (0001ms, 1352ms total)
T59B0 002:160 JLINK_ReadMem (0xE0041FD0, 0x0020 Bytes, ...) -- CPU is running -- CPU_ReadMem(32 bytes @ 0xE0041FD0) - Data: 04 00 00 00 00 00 00 00 00 00 00 00 00 00 00 00 ...  returns 0x00 (0002ms, 1354ms total)
T59B0 002:162 JLINK_ReadMemU32(0xE000EF40, 0x0001 Items, ...) -- CPU is running -- CPU_ReadMem(4 bytes @ 0xE000EF40) - Data: 21 00 11 10  returns 0x01 (0001ms, 1355ms total)
T59B0 002:163 JLINK_ReadMemU32(0xE000EF44, 0x0001 Items, ...) -- CPU is running -- CPU_ReadMem(4 bytes @ 0xE000EF44) - Data: 11 00 00 11  returns 0x01 (0002ms, 1357ms total)
T59B0 002:165 JLINK_ReadMemU32(0xE000ED00, 0x0001 Items, ...) -- CPU is running -- CPU_ReadMem(4 bytes @ 0xE000ED00) - Data: 41 C2 0F 41  returns 0x01 (0000ms, 1357ms total)
T59B0 002:165 JLINK_SetResetType(JLINKARM_RESET_TYPE_NORMAL)  returns JLINKARM_RESET_TYPE_NORMAL (0000ms, 1357ms total)
T59B0 002:165 JLINK_Reset() -- CPU is running -- CPU_WriteMem(4 bytes @ 0xE000EDF0) -- CPU is running -- CPU_WriteMem(4 bytes @ 0xE000EDFC) >0x35 TIF> -- CPU is running -- CPU_WriteMem(4 bytes @ 0xE000ED0C) -- CPU is running -- CPU_ReadMem(4 bytes @ 0xE000EDF0) -- CPU is running -- CPU_ReadMem(4 bytes @ 0xE000EDF0) -- CPU is running -- CPU_WriteMem(4 bytes @ 0xE000EDF0) -- CPU is running -- CPU_WriteMem(4 bytes @ 0xE000EDFC) -- CPU is running -- CPU_ReadMem(4 bytes @ 0xE000EDF0)
 -- CPU_WriteMem(4 bytes @ 0xE0002000) -- CPU_ReadMem(4 bytes @ 0xE000EDFC) -- CPU_ReadMem(4 bytes @ 0xE0001000) (0022ms, 1379ms total)
T59B0 002:187 JLINK_Halt()  returns 0x00 (0001ms, 1380ms total)
T59B0 002:188 JLINK_IsHalted()  returns TRUE (0000ms, 1380ms total)
T59B0 002:188 JLINK_ReadMemU32(0xE000EDF0, 0x0001 Items, ...) -- CPU_ReadMem(4 bytes @ 0xE000EDF0) - Data: 03 00 03 00  returns 0x01 (0001ms, 1381ms total)
T59B0 002:189 JLINK_WriteU32(0xE000EDF0, 0xA05F0003) -- CPU_WriteMem(4 bytes @ 0xE000EDF0)  returns 0x00 (0001ms, 1382ms total)
T59B0 002:190 JLINK_WriteU32(0xE000EDFC, 0x01000000) -- CPU_WriteMem(4 bytes @ 0xE000EDFC)  returns 0x00 (0001ms, 1383ms total)
T59B0 002:319 JLINK_GetHWStatus(...)  returns 0x00 (0001ms, 1384ms total)
T59B0 002:415 JLINK_GetNumBPUnits(Type = 0xFFFFFF00)  returns 0x06 (0000ms, 1384ms total)
T59B0 002:415 JLINK_GetNumBPUnits(Type = 0xF0)  returns 0x2000 (0001ms, 1385ms total)
T59B0 002:416 JLINK_GetNumWPUnits()  returns 0x04 (0001ms, 1386ms total)
T59B0 002:522 JLINK_GetSpeed()  returns 0xFA0 (0001ms, 1387ms total)
T59B0 002:588 JLINK_ReadMemU32(0xE000E004, 0x0001 Items, ...) -- CPU_ReadMem(4 bytes @ 0xE000E004) - Data: 02 00 00 00  returns 0x01 (0001ms, 1388ms total)
T59B0 002:589 JLINK_ReadMemU32(0xE000E004, 0x0001 Items, ...) -- CPU_ReadMem(4 bytes @ 0xE000E004) - Data: 02 00 00 00  returns 0x01 (0001ms, 1389ms total)
T59B0 002:591 JLINK_WriteMem(0xE0001000, 0x001C Bytes, ...) - Data: 01 00 00 00 00 00 00 00 00 00 00 00 00 00 00 00 ... -- CPU_WriteMem(28 bytes @ 0xE0001000)  returns 0x1C (0003ms, 1393ms total)
T59B0 002:594 JLINK_ReadMem (0xE0001000, 0x001C Bytes, ...) -- CPU_ReadMem(28 bytes @ 0xE0001000) - Data: 01 00 00 40 00 00 00 00 00 00 00 00 00 00 00 00 ...  returns 0x00 (0001ms, 1394ms total)
T59B0 002:595 JLINK_Halt()  returns 0x00 (0001ms, 1395ms total)
T59B0 002:596 JLINK_IsHalted()  returns TRUE (0000ms, 1395ms total)
T59B0 002:626 JLINK_WriteMem(0x20000000, 0x0180 Bytes, ...) - Data: 00 BE 0A E0 0D 78 2D 06 68 40 08 24 40 00 00 D3 ... -- CPU_WriteMem(384 bytes @ 0x20000000)  returns 0x180 (0006ms, 1401ms total)
T59B0 002:632 JLINK_WriteReg(R0, 0x08000000)  returns 0x00 (0001ms, 1402ms total)
T59B0 002:633 JLINK_WriteReg(R1, 0x00B71B00)  returns 0x00 (0000ms, 1402ms total)
T59B0 002:633 JLINK_WriteReg(R2, 0x00000001)  returns 0x00 (0000ms, 1402ms total)
T59B0 002:633 JLINK_WriteReg(R3, 0x00000000)  returns 0x00 (0001ms, 1403ms total)
T59B0 002:634 JLINK_WriteReg(R4, 0x00000000)  returns 0x00 (0000ms, 1403ms total)
T59B0 002:634 JLINK_WriteReg(R5, 0x00000000)  returns 0x00 (0000ms, 1403ms total)
T59B0 002:634 JLINK_WriteReg(R6, 0x00000000)  returns 0x00 (0000ms, 1403ms total)
T59B0 002:635 JLINK_WriteReg(R7, 0x00000000)  returns 0x00 (0000ms, 1404ms total)
T59B0 002:635 JLINK_WriteReg(R8, 0x00000000)  returns 0x00 (0000ms, 1404ms total)
T59B0 002:635 JLINK_WriteReg(R9, 0x2000017C)  returns 0x00 (0000ms, 1404ms total)
T59B0 002:635 JLINK_WriteReg(R10, 0x00000000)  returns 0x00 (0001ms, 1405ms total)
T59B0 002:636 JLINK_WriteReg(R11, 0x00000000)  returns 0x00 (0000ms, 1405ms total)
T59B0 002:636 JLINK_WriteReg(R12, 0x00000000)  returns 0x00 (0000ms, 1405ms total)
T59B0 002:636 JLINK_WriteReg(R13 (SP), 0x20000800)  returns 0x00 (0000ms, 1405ms total)
T59B0 002:636 JLINK_WriteReg(R14, 0x20000001)  returns 0x00 (0001ms, 1406ms total)
T59B0 002:637 JLINK_WriteReg(R15 (PC), 0x20000054)  returns 0x00 (0000ms, 1406ms total)
T59B0 002:637 JLINK_WriteReg(XPSR, 0x01000000)  returns 0x00 (0000ms, 1406ms total)
T59B0 002:637 JLINK_WriteReg(MSP, 0x20000800)  returns 0x00 (0000ms, 1406ms total)
T59B0 002:638 JLINK_WriteReg(PSP, 0x20000800)  returns 0x00 (0000ms, 1407ms total)
T59B0 002:638 JLINK_WriteReg(CFBP, 0x00000000)  returns 0x00 (0000ms, 1407ms total)
T59B0 002:638 JLINK_SetBPEx(Addr = 0x20000000, Type = 0xFFFFFFF2) -- CPU_ReadMem(2 bytes @ 0x20000000)  returns 0x00000001 (0001ms, 1408ms total)
T59B0 002:639 JLINK_Go() -- CPU_WriteMem(2 bytes @ 0x20000000) -- CPU_ReadMem(4 bytes @ 0xE0001000) -- CPU_WriteMem(4 bytes @ 0xE0002008) -- CPU_WriteMem(4 bytes @ 0xE000200C) -- CPU_WriteMem(4 bytes @ 0xE0002010) -- CPU_WriteMem(4 bytes @ 0xE0002014) -- CPU_WriteMem(4 bytes @ 0xE0002018) -- CPU_WriteMem(4 bytes @ 0xE000201C) -- CPU_WriteMem(4 bytes @ 0xE0001004) (0006ms, 1414ms total)
T59B0 002:645 JLINK_IsHalted() -- CPU_ReadMem(2 bytes @ 0x20000000)  returns TRUE (0004ms, 1418ms total)
T59B0 002:649 JLINK_ReadReg(R15 (PC))  returns 0x20000000 (0000ms, 1414ms total)
T59B0 002:649 JLINK_ClrBPEx(BPHandle = 0x00000001)  returns 0x00 (0000ms, 1414ms total)
T59B0 002:649 JLINK_ReadReg(R0)  returns 0x00000000 (0001ms, 1415ms total)
T59B0 002:653 JLINK_WriteReg(R0, 0x08000000)  returns 0x00 (0000ms, 1415ms total)
T59B0 002:654 JLINK_WriteReg(R1, 0x00004000)  returns 0x00 (0000ms, 1415ms total)
T59B0 002:654 JLINK_WriteReg(R2, 0x000000FF)  returns 0x00 (0000ms, 1415ms total)
T59B0 002:654 JLINK_WriteReg(R3, 0x00000000)  returns 0x00 (0000ms, 1415ms total)
T59B0 002:654 JLINK_WriteReg(R4, 0x00000000)  returns 0x00 (0001ms, 1416ms total)
T59B0 002:655 JLINK_WriteReg(R5, 0x00000000)  returns 0x00 (0000ms, 1416ms total)
T59B0 002:655 JLINK_WriteReg(R6, 0x00000000)  returns 0x00 (0000ms, 1416ms total)
T59B0 002:655 JLINK_WriteReg(R7, 0x00000000)  returns 0x00 (0000ms, 1416ms total)
T59B0 002:657 JLINK_WriteReg(R8, 0x00000000)  returns 0x00 (0000ms, 1417ms total)
T59B0 002:657 JLINK_WriteReg(R9, 0x2000017C)  returns 0x00 (0000ms, 1417ms total)
T59B0 002:657 JLINK_WriteReg(R10, 0x00000000)  returns 0x00 (0000ms, 1417ms total)
T59B0 002:657 JLINK_WriteReg(R11, 0x00000000)  returns 0x00 (0000ms, 1417ms total)
T59B0 002:657 JLINK_WriteReg(R12, 0x00000000)  returns 0x00 (0000ms, 1417ms total)
T59B0 002:657 JLINK_WriteReg(R13 (SP), 0x20000800)  returns 0x00 (0000ms, 1417ms total)
T59B0 002:657 JLINK_WriteReg(R14, 0x20000001)  returns 0x00 (0001ms, 1418ms total)
T59B0 002:658 JLINK_WriteReg(R15 (PC), 0x20000020)  returns 0x00 (0000ms, 1418ms total)
T59B0 002:658 JLINK_WriteReg(XPSR, 0x01000000)  returns 0x00 (0000ms, 1418ms total)
T59B0 002:659 JLINK_WriteReg(MSP, 0x20000800)  returns 0x00 (0000ms, 1419ms total)
T59B0 002:659 JLINK_WriteReg(PSP, 0x20000800)  returns 0x00 (0000ms, 1419ms total)
T59B0 002:659 JLINK_WriteReg(CFBP, 0x00000000)  returns 0x00 (0000ms, 1419ms total)
T59B0 002:659 JLINK_SetBPEx(Addr = 0x20000000, Type = 0xFFFFFFF2)  returns 0x00000002 (0001ms, 1420ms total)
T59B0 002:660 JLINK_Go() -- CPU_ReadMem(4 bytes @ 0xE0001000) (0003ms, 1423ms total)
T59B0 002:663 JLINK_IsHalted() -- CPU_ReadMem(2 bytes @ 0x20000000)  returns TRUE (0003ms, 1426ms total)
T59B0 002:666 JLINK_ReadReg(R15 (PC))  returns 0x20000000 (0001ms, 1424ms total)
T59B0 002:667 JLINK_ClrBPEx(BPHandle = 0x00000002)  returns 0x00 (0000ms, 1424ms total)
T59B0 002:667 JLINK_ReadReg(R0)  returns 0x00000001 (0000ms, 1424ms total)
T59B0 002:667 JLINK_WriteReg(R0, 0x08000000)  returns 0x00 (0001ms, 1425ms total)
T59B0 002:668 JLINK_WriteReg(R1, 0x00004000)  returns 0x00 (0000ms, 1425ms total)
T59B0 002:668 JLINK_WriteReg(R2, 0x000000FF)  returns 0x00 (0000ms, 1425ms total)
T59B0 002:668 JLINK_WriteReg(R3, 0x00000000)  returns 0x00 (0000ms, 1425ms total)
T59B0 002:668 JLINK_WriteReg(R4, 0x00000000)  returns 0x00 (0001ms, 1426ms total)
T59B0 002:669 JLINK_WriteReg(R5, 0x00000000)  returns 0x00 (0000ms, 1426ms total)
T59B0 002:669 JLINK_WriteReg(R6, 0x00000000)  returns 0x00 (0000ms, 1426ms total)
T59B0 002:669 JLINK_WriteReg(R7, 0x00000000)  returns 0x00 (0001ms, 1427ms total)
T59B0 002:670 JLINK_WriteReg(R8, 0x00000000)  returns 0x00 (0000ms, 1427ms total)
T59B0 002:670 JLINK_WriteReg(R9, 0x2000017C)  returns 0x00 (0000ms, 1427ms total)
T59B0 002:670 JLINK_WriteReg(R10, 0x00000000)  returns 0x00 (0001ms, 1428ms total)
T59B0 002:671 JLINK_WriteReg(R11, 0x00000000)  returns 0x00 (0000ms, 1428ms total)
T59B0 002:671 JLINK_WriteReg(R12, 0x00000000)  returns 0x00 (0000ms, 1428ms total)
T59B0 002:671 JLINK_WriteReg(R13 (SP), 0x20000800)  returns 0x00 (0000ms, 1428ms total)
T59B0 002:671 JLINK_WriteReg(R14, 0x20000001)  returns 0x00 (0001ms, 1429ms total)
T59B0 002:672 JLINK_WriteReg(R15 (PC), 0x200000BC)  returns 0x00 (0000ms, 1429ms total)
T59B0 002:672 JLINK_WriteReg(XPSR, 0x01000000)  returns 0x00 (0000ms, 1429ms total)
T59B0 002:673 JLINK_WriteReg(MSP, 0x20000800)  returns 0x00 (0000ms, 1430ms total)
T59B0 002:673 JLINK_WriteReg(PSP, 0x20000800)  returns 0x00 (0000ms, 1430ms total)
T59B0 002:673 JLINK_WriteReg(CFBP, 0x00000000)  returns 0x00 (0000ms, 1430ms total)
T59B0 002:673 JLINK_SetBPEx(Addr = 0x20000000, Type = 0xFFFFFFF2)  returns 0x00000003 (0001ms, 1431ms total)
T59B0 002:674 JLINK_Go() -- CPU_ReadMem(4 bytes @ 0xE0001000) (0002ms, 1433ms total)
T59B0 002:676 JLINK_IsHalted()  returns FALSE (0001ms, 1434ms total)
T59B0 003:058 JLINK_IsHalted() -- CPU_ReadMem(2 bytes @ 0x20000000)  returns TRUE (0003ms, 1436ms total)
T59B0 003:061 JLINK_ReadReg(R15 (PC))  returns 0x20000000 (0000ms, 1433ms total)
T59B0 003:062 JLINK_ClrBPEx(BPHandle = 0x00000003)  returns 0x00 (0000ms, 1433ms total)
T59B0 003:062 JLINK_ReadReg(R0)  returns 0x00000000 (0000ms, 1433ms total)
T59B0 003:063 JLINK_WriteReg(R0, 0x08004000)  returns 0x00 (0000ms, 1433ms total)
T59B0 003:063 JLINK_WriteReg(R1, 0x00004000)  returns 0x00 (0000ms, 1433ms total)
T59B0 003:063 JLINK_WriteReg(R2, 0x000000FF)  returns 0x00 (0000ms, 1433ms total)
T59B0 003:063 JLINK_WriteReg(R3, 0x00000000)  returns 0x00 (0000ms, 1433ms total)
T59B0 003:063 JLINK_WriteReg(R4, 0x00000000)  returns 0x00 (0000ms, 1433ms total)
T59B0 003:063 JLINK_WriteReg(R5, 0x00000000)  returns 0x00 (0000ms, 1433ms total)
T59B0 003:063 JLINK_WriteReg(R6, 0x00000000)  returns 0x00 (0000ms, 1433ms total)
T59B0 003:063 JLINK_WriteReg(R7, 0x00000000)  returns 0x00 (0000ms, 1433ms total)
T59B0 003:063 JLINK_WriteReg(R8, 0x00000000)  returns 0x00 (0000ms, 1433ms total)
T59B0 003:063 JLINK_WriteReg(R9, 0x2000017C)  returns 0x00 (0000ms, 1433ms total)
T59B0 003:063 JLINK_WriteReg(R10, 0x00000000)  returns 0x00 (0000ms, 1433ms total)
T59B0 003:063 JLINK_WriteReg(R11, 0x00000000)  returns 0x00 (0000ms, 1433ms total)
T59B0 003:063 JLINK_WriteReg(R12, 0x00000000)  returns 0x00 (0001ms, 1434ms total)
T59B0 003:064 JLINK_WriteReg(R13 (SP), 0x20000800)  returns 0x00 (0000ms, 1434ms total)
T59B0 003:064 JLINK_WriteReg(R14, 0x20000001)  returns 0x00 (0000ms, 1434ms total)
T59B0 003:064 JLINK_WriteReg(R15 (PC), 0x20000020)  returns 0x00 (0000ms, 1434ms total)
T59B0 003:064 JLINK_WriteReg(XPSR, 0x01000000)  returns 0x00 (0000ms, 1434ms total)
T59B0 003:064 JLINK_WriteReg(MSP, 0x20000800)  returns 0x00 (0000ms, 1434ms total)
T59B0 003:064 JLINK_WriteReg(PSP, 0x20000800)  returns 0x00 (0000ms, 1434ms total)
T59B0 003:064 JLINK_WriteReg(CFBP, 0x00000000)  returns 0x00 (0000ms, 1434ms total)
T59B0 003:064 JLINK_SetBPEx(Addr = 0x20000000, Type = 0xFFFFFFF2)  returns 0x00000004 (0000ms, 1434ms total)
T59B0 003:064 JLINK_Go() -- CPU_ReadMem(4 bytes @ 0xE0001000) (0003ms, 1437ms total)
T59B0 003:067 JLINK_IsHalted() -- CPU_ReadMem(2 bytes @ 0x20000000)  returns TRUE (0003ms, 1440ms total)
T59B0 003:070 JLINK_ReadReg(R15 (PC))  returns 0x20000000 (0000ms, 1437ms total)
T59B0 003:070 JLINK_ClrBPEx(BPHandle = 0x00000004)  returns 0x00 (0000ms, 1437ms total)
T59B0 003:070 JLINK_ReadReg(R0)  returns 0x00000001 (0000ms, 1437ms total)
T59B0 003:070 JLINK_WriteReg(R0, 0x08004000)  returns 0x00 (0000ms, 1437ms total)
T59B0 003:070 JLINK_WriteReg(R1, 0x00004000)  returns 0x00 (0000ms, 1437ms total)
T59B0 003:070 JLINK_WriteReg(R2, 0x000000FF)  returns 0x00 (0000ms, 1437ms total)
T59B0 003:070 JLINK_WriteReg(R3, 0x00000000)  returns 0x00 (0000ms, 1437ms total)
T59B0 003:070 JLINK_WriteReg(R4, 0x00000000)  returns 0x00 (0000ms, 1437ms total)
T59B0 003:070 JLINK_WriteReg(R5, 0x00000000)  returns 0x00 (0000ms, 1437ms total)
T59B0 003:070 JLINK_WriteReg(R6, 0x00000000)  returns 0x00 (0000ms, 1437ms total)
T59B0 003:070 JLINK_WriteReg(R7, 0x00000000)  returns 0x00 (0001ms, 1438ms total)
T59B0 003:071 JLINK_WriteReg(R8, 0x00000000)  returns 0x00 (0000ms, 1438ms total)
T59B0 003:071 JLINK_WriteReg(R9, 0x2000017C)  returns 0x00 (0000ms, 1438ms total)
T59B0 003:071 JLINK_WriteReg(R10, 0x00000000)  returns 0x00 (0000ms, 1438ms total)
T59B0 003:071 JLINK_WriteReg(R11, 0x00000000)  returns 0x00 (0000ms, 1438ms total)
T59B0 003:071 JLINK_WriteReg(R12, 0x00000000)  returns 0x00 (0000ms, 1438ms total)
T59B0 003:071 JLINK_WriteReg(R13 (SP), 0x20000800)  returns 0x00 (0000ms, 1438ms total)
T59B0 003:071 JLINK_WriteReg(R14, 0x20000001)  returns 0x00 (0000ms, 1438ms total)
T59B0 003:071 JLINK_WriteReg(R15 (PC), 0x200000BC)  returns 0x00 (0000ms, 1438ms total)
T59B0 003:071 JLINK_WriteReg(XPSR, 0x01000000)  returns 0x00 (0000ms, 1438ms total)
T59B0 003:071 JLINK_WriteReg(MSP, 0x20000800)  returns 0x00 (0000ms, 1438ms total)
T59B0 003:071 JLINK_WriteReg(PSP, 0x20000800)  returns 0x00 (0001ms, 1439ms total)
T59B0 003:072 JLINK_WriteReg(CFBP, 0x00000000)  returns 0x00 (0000ms, 1439ms total)
T59B0 003:072 JLINK_SetBPEx(Addr = 0x20000000, Type = 0xFFFFFFF2)  returns 0x00000005 (0000ms, 1439ms total)
T59B0 003:072 JLINK_Go() -- CPU_ReadMem(4 bytes @ 0xE0001000) (0002ms, 1441ms total)
T59B0 003:074 JLINK_IsHalted()  returns FALSE (0001ms, 1442ms total)
T59B0 003:379 JLINK_IsHalted()  returns FALSE (0001ms, 1442ms total)
T59B0 003:693 JLINK_IsHalted() -- CPU_ReadMem(2 bytes @ 0x20000000)  returns TRUE (0003ms, 1444ms total)
T59B0 003:696 JLINK_ReadReg(R15 (PC))  returns 0x20000000 (0001ms, 1442ms total)
T59B0 003:697 JLINK_ClrBPEx(BPHandle = 0x00000005)  returns 0x00 (0000ms, 1442ms total)
T59B0 003:697 JLINK_ReadReg(R0)  returns 0x00000000 (0000ms, 1442ms total)
T59B0 003:701 JLINK_WriteReg(R0, 0x08008000)  returns 0x00 (0000ms, 1442ms total)
T59B0 003:701 JLINK_WriteReg(R1, 0x00004000)  returns 0x00 (0001ms, 1443ms total)
T59B0 003:702 JLINK_WriteReg(R2, 0x000000FF)  returns 0x00 (0000ms, 1443ms total)
T59B0 003:702 JLINK_WriteReg(R3, 0x00000000)  returns 0x00 (0000ms, 1443ms total)
T59B0 003:702 JLINK_WriteReg(R4, 0x00000000)  returns 0x00 (0001ms, 1444ms total)
T59B0 003:703 JLINK_WriteReg(R5, 0x00000000)  returns 0x00 (0000ms, 1444ms total)
T59B0 003:703 JLINK_WriteReg(R6, 0x00000000)  returns 0x00 (0000ms, 1444ms total)
T59B0 003:703 JLINK_WriteReg(R7, 0x00000000)  returns 0x00 (0000ms, 1444ms total)
T59B0 003:703 JLINK_WriteReg(R8, 0x00000000)  returns 0x00 (0001ms, 1445ms total)
T59B0 003:704 JLINK_WriteReg(R9, 0x2000017C)  returns 0x00 (0000ms, 1445ms total)
T59B0 003:704 JLINK_WriteReg(R10, 0x00000000)  returns 0x00 (0000ms, 1445ms total)
T59B0 003:704 JLINK_WriteReg(R11, 0x00000000)  returns 0x00 (0001ms, 1446ms total)
T59B0 003:705 JLINK_WriteReg(R12, 0x00000000)  returns 0x00 (0000ms, 1446ms total)
T59B0 003:705 JLINK_WriteReg(R13 (SP), 0x20000800)  returns 0x00 (0000ms, 1446ms total)
T59B0 003:705 JLINK_WriteReg(R14, 0x20000001)  returns 0x00 (0000ms, 1446ms total)
T59B0 003:705 JLINK_WriteReg(R15 (PC), 0x20000020)  returns 0x00 (0001ms, 1447ms total)
T59B0 003:706 JLINK_WriteReg(XPSR, 0x01000000)  returns 0x00 (0000ms, 1447ms total)
T59B0 003:706 JLINK_WriteReg(MSP, 0x20000800)  returns 0x00 (0000ms, 1447ms total)
T59B0 003:706 JLINK_WriteReg(PSP, 0x20000800)  returns 0x00 (0000ms, 1447ms total)
T59B0 003:706 JLINK_WriteReg(CFBP, 0x00000000)  returns 0x00 (0001ms, 1448ms total)
T59B0 003:707 JLINK_SetBPEx(Addr = 0x20000000, Type = 0xFFFFFFF2)  returns 0x00000006 (0000ms, 1448ms total)
T59B0 003:707 JLINK_Go() -- CPU_ReadMem(4 bytes @ 0xE0001000) (0002ms, 1450ms total)
T59B0 003:709 JLINK_IsHalted() -- CPU_ReadMem(2 bytes @ 0x20000000)  returns TRUE (0004ms, 1454ms total)
T59B0 003:714 JLINK_ReadReg(R15 (PC))  returns 0x20000000 (0000ms, 1450ms total)
T59B0 003:714 JLINK_ClrBPEx(BPHandle = 0x00000006)  returns 0x00 (0000ms, 1450ms total)
T59B0 003:714 JLINK_ReadReg(R0)  returns 0x00000001 (0000ms, 1450ms total)
T59B0 003:715 JLINK_WriteReg(R0, 0x08008000)  returns 0x00 (0000ms, 1450ms total)
T59B0 003:715 JLINK_WriteReg(R1, 0x00004000)  returns 0x00 (0000ms, 1450ms total)
T59B0 003:715 JLINK_WriteReg(R2, 0x000000FF)  returns 0x00 (0000ms, 1450ms total)
T59B0 003:715 JLINK_WriteReg(R3, 0x00000000)  returns 0x00 (0001ms, 1451ms total)
T59B0 003:716 JLINK_WriteReg(R4, 0x00000000)  returns 0x00 (0000ms, 1451ms total)
T59B0 003:716 JLINK_WriteReg(R5, 0x00000000)  returns 0x00 (0000ms, 1451ms total)
T59B0 003:716 JLINK_WriteReg(R6, 0x00000000)  returns 0x00 (0000ms, 1451ms total)
T59B0 003:716 JLINK_WriteReg(R7, 0x00000000)  returns 0x00 (0001ms, 1452ms total)
T59B0 003:717 JLINK_WriteReg(R8, 0x00000000)  returns 0x00 (0000ms, 1452ms total)
T59B0 003:717 JLINK_WriteReg(R9, 0x2000017C)  returns 0x00 (0000ms, 1452ms total)
T59B0 003:717 JLINK_WriteReg(R10, 0x00000000)  returns 0x00 (0000ms, 1452ms total)
T59B0 003:717 JLINK_WriteReg(R11, 0x00000000)  returns 0x00 (0001ms, 1453ms total)
T59B0 003:718 JLINK_WriteReg(R12, 0x00000000)  returns 0x00 (0000ms, 1453ms total)
T59B0 003:718 JLINK_WriteReg(R13 (SP), 0x20000800)  returns 0x00 (0000ms, 1453ms total)
T59B0 003:718 JLINK_WriteReg(R14, 0x20000001)  returns 0x00 (0000ms, 1453ms total)
T59B0 003:718 JLINK_WriteReg(R15 (PC), 0x200000BC)  returns 0x00 (0001ms, 1454ms total)
T59B0 003:719 JLINK_WriteReg(XPSR, 0x01000000)  returns 0x00 (0000ms, 1454ms total)
T59B0 003:719 JLINK_WriteReg(MSP, 0x20000800)  returns 0x00 (0000ms, 1454ms total)
T59B0 003:719 JLINK_WriteReg(PSP, 0x20000800)  returns 0x00 (0000ms, 1454ms total)
T59B0 003:719 JLINK_WriteReg(CFBP, 0x00000000)  returns 0x00 (0001ms, 1455ms total)
T59B0 003:720 JLINK_SetBPEx(Addr = 0x20000000, Type = 0xFFFFFFF2)  returns 0x00000007 (0000ms, 1455ms total)
T59B0 003:720 JLINK_Go() -- CPU_ReadMem(4 bytes @ 0xE0001000) (0003ms, 1458ms total)
T59B0 003:723 JLINK_IsHalted()  returns FALSE (0001ms, 1459ms total)
T59B0 004:003 JLINK_IsHalted()  returns FALSE (0001ms, 1459ms total)
T59B0 004:277 JLINK_IsHalted() -- CPU_ReadMem(2 bytes @ 0x20000000)  returns TRUE (0003ms, 1461ms total)
T59B0 004:280 JLINK_ReadReg(R15 (PC))  returns 0x20000000 (0001ms, 1459ms total)
T59B0 004:281 JLINK_ClrBPEx(BPHandle = 0x00000007)  returns 0x00 (0000ms, 1459ms total)
T59B0 004:281 JLINK_ReadReg(R0)  returns 0x00000000 (0000ms, 1459ms total)
T59B0 004:283 JLINK_WriteReg(R0, 0x0800C000)  returns 0x00 (0000ms, 1459ms total)
T59B0 004:283 JLINK_WriteReg(R1, 0x00004000)  returns 0x00 (0001ms, 1460ms total)
T59B0 004:284 JLINK_WriteReg(R2, 0x000000FF)  returns 0x00 (0000ms, 1460ms total)
T59B0 004:284 JLINK_WriteReg(R3, 0x00000000)  returns 0x00 (0000ms, 1460ms total)
T59B0 004:284 JLINK_WriteReg(R4, 0x00000000)  returns 0x00 (0000ms, 1460ms total)
T59B0 004:284 JLINK_WriteReg(R5, 0x00000000)  returns 0x00 (0001ms, 1461ms total)
T59B0 004:285 JLINK_WriteReg(R6, 0x00000000)  returns 0x00 (0000ms, 1461ms total)
T59B0 004:285 JLINK_WriteReg(R7, 0x00000000)  returns 0x00 (0000ms, 1461ms total)
T59B0 004:285 JLINK_WriteReg(R8, 0x00000000)  returns 0x00 (0000ms, 1461ms total)
T59B0 004:285 JLINK_WriteReg(R9, 0x2000017C)  returns 0x00 (0001ms, 1462ms total)
T59B0 004:286 JLINK_WriteReg(R10, 0x00000000)  returns 0x00 (0000ms, 1462ms total)
T59B0 004:286 JLINK_WriteReg(R11, 0x00000000)  returns 0x00 (0000ms, 1462ms total)
T59B0 004:286 JLINK_WriteReg(R12, 0x00000000)  returns 0x00 (0000ms, 1462ms total)
T59B0 004:287 JLINK_WriteReg(R13 (SP), 0x20000800)  returns 0x00 (0000ms, 1463ms total)
T59B0 004:287 JLINK_WriteReg(R14, 0x20000001)  returns 0x00 (0000ms, 1463ms total)
T59B0 004:287 JLINK_WriteReg(R15 (PC), 0x20000020)  returns 0x00 (0000ms, 1463ms total)
T59B0 004:287 JLINK_WriteReg(XPSR, 0x01000000)  returns 0x00 (0001ms, 1464ms total)
T59B0 004:288 JLINK_WriteReg(MSP, 0x20000800)  returns 0x00 (0000ms, 1464ms total)
T59B0 004:288 JLINK_WriteReg(PSP, 0x20000800)  returns 0x00 (0000ms, 1464ms total)
T59B0 004:288 JLINK_WriteReg(CFBP, 0x00000000)  returns 0x00 (0000ms, 1464ms total)
T59B0 004:288 JLINK_SetBPEx(Addr = 0x20000000, Type = 0xFFFFFFF2)  returns 0x00000008 (0001ms, 1465ms total)
T59B0 004:289 JLINK_Go() -- CPU_ReadMem(4 bytes @ 0xE0001000) (0002ms, 1467ms total)
T59B0 004:291 JLINK_IsHalted() -- CPU_ReadMem(2 bytes @ 0x20000000)  returns TRUE (0003ms, 1470ms total)
T59B0 004:294 JLINK_ReadReg(R15 (PC))  returns 0x20000000 (0000ms, 1467ms total)
T59B0 004:294 JLINK_ClrBPEx(BPHandle = 0x00000008)  returns 0x00 (0001ms, 1468ms total)
T59B0 004:296 JLINK_ReadReg(R0)  returns 0x00000001 (0000ms, 1468ms total)
T59B0 004:296 JLINK_WriteReg(R0, 0x0800C000)  returns 0x00 (0000ms, 1468ms total)
T59B0 004:296 JLINK_WriteReg(R1, 0x00004000)  returns 0x00 (0000ms, 1468ms total)
T59B0 004:297 JLINK_WriteReg(R2, 0x000000FF)  returns 0x00 (0000ms, 1469ms total)
T59B0 004:297 JLINK_WriteReg(R3, 0x00000000)  returns 0x00 (0000ms, 1469ms total)
T59B0 004:297 JLINK_WriteReg(R4, 0x00000000)  returns 0x00 (0000ms, 1469ms total)
T59B0 004:297 JLINK_WriteReg(R5, 0x00000000)  returns 0x00 (0000ms, 1469ms total)
T59B0 004:297 JLINK_WriteReg(R6, 0x00000000)  returns 0x00 (0000ms, 1469ms total)
T59B0 004:297 JLINK_WriteReg(R7, 0x00000000)  returns 0x00 (0000ms, 1469ms total)
T59B0 004:297 JLINK_WriteReg(R8, 0x00000000)  returns 0x00 (0001ms, 1470ms total)
T59B0 004:298 JLINK_WriteReg(R9, 0x2000017C)  returns 0x00 (0000ms, 1470ms total)
T59B0 004:298 JLINK_WriteReg(R10, 0x00000000)  returns 0x00 (0000ms, 1470ms total)
T59B0 004:298 JLINK_WriteReg(R11, 0x00000000)  returns 0x00 (0000ms, 1470ms total)
T59B0 004:298 JLINK_WriteReg(R12, 0x00000000)  returns 0x00 (0001ms, 1471ms total)
T59B0 004:300 JLINK_WriteReg(R13 (SP), 0x20000800)  returns 0x00 (0000ms, 1472ms total)
T59B0 004:300 JLINK_WriteReg(R14, 0x20000001)  returns 0x00 (0000ms, 1472ms total)
T59B0 004:300 JLINK_WriteReg(R15 (PC), 0x200000BC)  returns 0x00 (0000ms, 1472ms total)
T59B0 004:300 JLINK_WriteReg(XPSR, 0x01000000)  returns 0x00 (0000ms, 1472ms total)
T59B0 004:300 JLINK_WriteReg(MSP, 0x20000800)  returns 0x00 (0001ms, 1473ms total)
T59B0 004:301 JLINK_WriteReg(PSP, 0x20000800)  returns 0x00 (0000ms, 1473ms total)
T59B0 004:301 JLINK_WriteReg(CFBP, 0x00000000)  returns 0x00 (0000ms, 1473ms total)
T59B0 004:301 JLINK_SetBPEx(Addr = 0x20000000, Type = 0xFFFFFFF2)  returns 0x00000009 (0001ms, 1474ms total)
T59B0 004:302 JLINK_Go() -- CPU_ReadMem(4 bytes @ 0xE0001000) (0001ms, 1475ms total)
T59B0 004:303 JLINK_IsHalted()  returns FALSE (0001ms, 1476ms total)
T59B0 004:571 JLINK_IsHalted()  returns FALSE (0001ms, 1476ms total)
T59B0 004:818 JLINK_IsHalted() -- CPU_ReadMem(2 bytes @ 0x20000000)  returns TRUE (0004ms, 1479ms total)
T59B0 004:822 JLINK_ReadReg(R15 (PC))  returns 0x20000000 (0000ms, 1475ms total)
T59B0 004:822 JLINK_ClrBPEx(BPHandle = 0x00000009)  returns 0x00 (0000ms, 1475ms total)
T59B0 004:822 JLINK_ReadReg(R0)  returns 0x00000000 (0001ms, 1476ms total)
T59B0 004:825 JLINK_WriteReg(R0, 0x08010000)  returns 0x00 (0001ms, 1477ms total)
T59B0 004:826 JLINK_WriteReg(R1, 0x00010000)  returns 0x00 (0000ms, 1477ms total)
T59B0 004:826 JLINK_WriteReg(R2, 0x000000FF)  returns 0x00 (0000ms, 1477ms total)
T59B0 004:826 JLINK_WriteReg(R3, 0x00000000)  returns 0x00 (0000ms, 1477ms total)
T59B0 004:826 JLINK_WriteReg(R4, 0x00000000)  returns 0x00 (0001ms, 1478ms total)
T59B0 004:827 JLINK_WriteReg(R5, 0x00000000)  returns 0x00 (0000ms, 1478ms total)
T59B0 004:827 JLINK_WriteReg(R6, 0x00000000)  returns 0x00 (0000ms, 1478ms total)
T59B0 004:827 JLINK_WriteReg(R7, 0x00000000)  returns 0x00 (0000ms, 1478ms total)
T59B0 004:827 JLINK_WriteReg(R8, 0x00000000)  returns 0x00 (0001ms, 1479ms total)
T59B0 004:828 JLINK_WriteReg(R9, 0x2000017C)  returns 0x00 (0000ms, 1479ms total)
T59B0 004:828 JLINK_WriteReg(R10, 0x00000000)  returns 0x00 (0000ms, 1479ms total)
T59B0 004:828 JLINK_WriteReg(R11, 0x00000000)  returns 0x00 (0000ms, 1479ms total)
T59B0 004:829 JLINK_WriteReg(R12, 0x00000000)  returns 0x00 (0000ms, 1480ms total)
T59B0 004:829 JLINK_WriteReg(R13 (SP), 0x20000800)  returns 0x00 (0000ms, 1480ms total)
T59B0 004:829 JLINK_WriteReg(R14, 0x20000001)  returns 0x00 (0000ms, 1480ms total)
T59B0 004:829 JLINK_WriteReg(R15 (PC), 0x20000020)  returns 0x00 (0001ms, 1481ms total)
T59B0 004:830 JLINK_WriteReg(XPSR, 0x01000000)  returns 0x00 (0000ms, 1481ms total)
T59B0 004:830 JLINK_WriteReg(MSP, 0x20000800)  returns 0x00 (0000ms, 1481ms total)
T59B0 004:830 JLINK_WriteReg(PSP, 0x20000800)  returns 0x00 (0000ms, 1481ms total)
T59B0 004:830 JLINK_WriteReg(CFBP, 0x00000000)  returns 0x00 (0001ms, 1482ms total)
T59B0 004:831 JLINK_SetBPEx(Addr = 0x20000000, Type = 0xFFFFFFF2)  returns 0x0000000A (0000ms, 1482ms total)
T59B0 004:831 JLINK_Go() -- CPU_ReadMem(4 bytes @ 0xE0001000) (0002ms, 1484ms total)
T59B0 004:833 JLINK_IsHalted() -- CPU_ReadMem(2 bytes @ 0x20000000)  returns TRUE (0004ms, 1488ms total)
T59B0 004:837 JLINK_ReadReg(R15 (PC))  returns 0x20000000 (0000ms, 1484ms total)
T59B0 004:837 JLINK_ClrBPEx(BPHandle = 0x0000000A)  returns 0x00 (0000ms, 1484ms total)
T59B0 004:837 JLINK_ReadReg(R0)  returns 0x00000001 (0001ms, 1485ms total)
T59B0 004:838 JLINK_WriteReg(R0, 0x08010000)  returns 0x00 (0000ms, 1485ms total)
T59B0 004:838 JLINK_WriteReg(R1, 0x00010000)  returns 0x00 (0000ms, 1485ms total)
T59B0 004:838 JLINK_WriteReg(R2, 0x000000FF)  returns 0x00 (0000ms, 1485ms total)
T59B0 004:838 JLINK_WriteReg(R3, 0x00000000)  returns 0x00 (0001ms, 1486ms total)
T59B0 004:839 JLINK_WriteReg(R4, 0x00000000)  returns 0x00 (0000ms, 1486ms total)
T59B0 004:839 JLINK_WriteReg(R5, 0x00000000)  returns 0x00 (0000ms, 1486ms total)
T59B0 004:839 JLINK_WriteReg(R6, 0x00000000)  returns 0x00 (0000ms, 1486ms total)
T59B0 004:839 JLINK_WriteReg(R7, 0x00000000)  returns 0x00 (0001ms, 1487ms total)
T59B0 004:840 JLINK_WriteReg(R8, 0x00000000)  returns 0x00 (0000ms, 1487ms total)
T59B0 004:840 JLINK_WriteReg(R9, 0x2000017C)  returns 0x00 (0000ms, 1487ms total)
T59B0 004:840 JLINK_WriteReg(R10, 0x00000000)  returns 0x00 (0000ms, 1487ms total)
T59B0 004:840 JLINK_WriteReg(R11, 0x00000000)  returns 0x00 (0001ms, 1488ms total)
T59B0 004:841 JLINK_WriteReg(R12, 0x00000000)  returns 0x00 (0000ms, 1488ms total)
T59B0 004:841 JLINK_WriteReg(R13 (SP), 0x20000800)  returns 0x00 (0000ms, 1488ms total)
T59B0 004:841 JLINK_WriteReg(R14, 0x20000001)  returns 0x00 (0000ms, 1488ms total)
T59B0 004:841 JLINK_WriteReg(R15 (PC), 0x200000BC)  returns 0x00 (0001ms, 1489ms total)
T59B0 004:842 JLINK_WriteReg(XPSR, 0x01000000)  returns 0x00 (0000ms, 1489ms total)
T59B0 004:842 JLINK_WriteReg(MSP, 0x20000800)  returns 0x00 (0000ms, 1489ms total)
T59B0 004:842 JLINK_WriteReg(PSP, 0x20000800)  returns 0x00 (0000ms, 1489ms total)
T59B0 004:842 JLINK_WriteReg(CFBP, 0x00000000)  returns 0x00 (0001ms, 1490ms total)
T59B0 004:843 JLINK_SetBPEx(Addr = 0x20000000, Type = 0xFFFFFFF2)  returns 0x0000000B (0000ms, 1490ms total)
T59B0 004:843 JLINK_Go() -- CPU_ReadMem(4 bytes @ 0xE0001000) (0002ms, 1492ms total)
T59B0 004:845 JLINK_IsHalted()  returns FALSE (0001ms, 1493ms total)
T59B0 005:116 JLINK_IsHalted()  returns FALSE (0001ms, 1493ms total)
T59B0 005:377 JLINK_IsHalted()  returns FALSE (0001ms, 1493ms total)
T59B0 005:645 JLINK_IsHalted()  returns FALSE (0000ms, 1492ms total)
T59B0 005:902 JLINK_IsHalted()  returns FALSE (0001ms, 1493ms total)
T59B0 006:169 JLINK_IsHalted() -- CPU_ReadMem(2 bytes @ 0x20000000)  returns TRUE (0003ms, 1495ms total)
T59B0 006:172 JLINK_ReadReg(R15 (PC))  returns 0x20000000 (0000ms, 1492ms total)
T59B0 006:172 JLINK_ClrBPEx(BPHandle = 0x0000000B)  returns 0x00 (0000ms, 1492ms total)
T59B0 006:172 JLINK_ReadReg(R0)  returns 0x00000000 (0001ms, 1493ms total)
T59B0 006:174 JLINK_WriteReg(R0, 0x08020000)  returns 0x00 (0000ms, 1493ms total)
T59B0 006:174 JLINK_WriteReg(R1, 0x00020000)  returns 0x00 (0000ms, 1493ms total)
T59B0 006:174 JLINK_WriteReg(R2, 0x000000FF)  returns 0x00 (0001ms, 1494ms total)
T59B0 006:175 JLINK_WriteReg(R3, 0x00000000)  returns 0x00 (0000ms, 1494ms total)
T59B0 006:175 JLINK_WriteReg(R4, 0x00000000)  returns 0x00 (0000ms, 1494ms total)
T59B0 006:175 JLINK_WriteReg(R5, 0x00000000)  returns 0x00 (0000ms, 1494ms total)
T59B0 006:175 JLINK_WriteReg(R6, 0x00000000)  returns 0x00 (0000ms, 1494ms total)
T59B0 006:175 JLINK_WriteReg(R7, 0x00000000)  returns 0x00 (0000ms, 1494ms total)
T59B0 006:175 JLINK_WriteReg(R8, 0x00000000)  returns 0x00 (0000ms, 1494ms total)
T59B0 006:175 JLINK_WriteReg(R9, 0x2000017C)  returns 0x00 (0001ms, 1495ms total)
T59B0 006:176 JLINK_WriteReg(R10, 0x00000000)  returns 0x00 (0000ms, 1495ms total)
T59B0 006:176 JLINK_WriteReg(R11, 0x00000000)  returns 0x00 (0000ms, 1495ms total)
T59B0 006:176 JLINK_WriteReg(R12, 0x00000000)  returns 0x00 (0000ms, 1495ms total)
T59B0 006:176 JLINK_WriteReg(R13 (SP), 0x20000800)  returns 0x00 (0000ms, 1495ms total)
T59B0 006:176 JLINK_WriteReg(R14, 0x20000001)  returns 0x00 (0000ms, 1495ms total)
T59B0 006:176 JLINK_WriteReg(R15 (PC), 0x20000020)  returns 0x00 (0001ms, 1496ms total)
T59B0 006:177 JLINK_WriteReg(XPSR, 0x01000000)  returns 0x00 (0000ms, 1496ms total)
T59B0 006:177 JLINK_WriteReg(MSP, 0x20000800)  returns 0x00 (0000ms, 1496ms total)
T59B0 006:177 JLINK_WriteReg(PSP, 0x20000800)  returns 0x00 (0000ms, 1496ms total)
T59B0 006:177 JLINK_WriteReg(CFBP, 0x00000000)  returns 0x00 (0000ms, 1496ms total)
T59B0 006:177 JLINK_SetBPEx(Addr = 0x20000000, Type = 0xFFFFFFF2)  returns 0x0000000C (0000ms, 1496ms total)
T59B0 006:177 JLINK_Go() -- CPU_ReadMem(4 bytes @ 0xE0001000) (0001ms, 1497ms total)
T59B0 006:179 JLINK_IsHalted() -- CPU_ReadMem(2 bytes @ 0x20000000)  returns TRUE (0003ms, 1501ms total)
T59B0 006:182 JLINK_ReadReg(R15 (PC))  returns 0x20000000 (0000ms, 1498ms total)
T59B0 006:182 JLINK_ClrBPEx(BPHandle = 0x0000000C)  returns 0x00 (0000ms, 1498ms total)
T59B0 006:182 JLINK_ReadReg(R0)  returns 0x00000001 (0000ms, 1498ms total)
T59B0 006:182 JLINK_WriteReg(R0, 0x08020000)  returns 0x00 (0000ms, 1498ms total)
T59B0 006:182 JLINK_WriteReg(R1, 0x00020000)  returns 0x00 (0000ms, 1498ms total)
T59B0 006:182 JLINK_WriteReg(R2, 0x000000FF)  returns 0x00 (0001ms, 1499ms total)
T59B0 006:183 JLINK_WriteReg(R3, 0x00000000)  returns 0x00 (0000ms, 1499ms total)
T59B0 006:183 JLINK_WriteReg(R4, 0x00000000)  returns 0x00 (0000ms, 1499ms total)
T59B0 006:183 JLINK_WriteReg(R5, 0x00000000)  returns 0x00 (0000ms, 1499ms total)
T59B0 006:183 JLINK_WriteReg(R6, 0x00000000)  returns 0x00 (0000ms, 1499ms total)
T59B0 006:183 JLINK_WriteReg(R7, 0x00000000)  returns 0x00 (0001ms, 1500ms total)
T59B0 006:184 JLINK_WriteReg(R8, 0x00000000)  returns 0x00 (0001ms, 1501ms total)
T59B0 006:192 JLINK_WriteReg(R9, 0x2000017C)  returns 0x00 (0000ms, 1508ms total)
T59B0 006:192 JLINK_WriteReg(R10, 0x00000000)  returns 0x00 (0000ms, 1508ms total)
T59B0 006:193 JLINK_WriteReg(R11, 0x00000000)  returns 0x00 (0000ms, 1509ms total)
T59B0 006:194 JLINK_WriteReg(R12, 0x00000000)  returns 0x00 (0000ms, 1510ms total)
T59B0 006:194 JLINK_WriteReg(R13 (SP), 0x20000800)  returns 0x00 (0000ms, 1510ms total)
T59B0 006:194 JLINK_WriteReg(R14, 0x20000001)  returns 0x00 (0000ms, 1510ms total)
T59B0 006:194 JLINK_WriteReg(R15 (PC), 0x200000BC)  returns 0x00 (0000ms, 1510ms total)
T59B0 006:194 JLINK_WriteReg(XPSR, 0x01000000)  returns 0x00 (0000ms, 1510ms total)
T59B0 006:194 JLINK_WriteReg(MSP, 0x20000800)  returns 0x00 (0000ms, 1510ms total)
T59B0 006:194 JLINK_WriteReg(PSP, 0x20000800)  returns 0x00 (0000ms, 1510ms total)
T59B0 006:194 JLINK_WriteReg(CFBP, 0x00000000)  returns 0x00 (0000ms, 1510ms total)
T59B0 006:194 JLINK_SetBPEx(Addr = 0x20000000, Type = 0xFFFFFFF2)  returns 0x0000000D (0000ms, 1510ms total)
T59B0 006:194 JLINK_Go() -- CPU_ReadMem(4 bytes @ 0xE0001000) (0003ms, 1513ms total)
T59B0 006:197 JLINK_IsHalted()  returns FALSE (0000ms, 1513ms total)
T59B0 006:450 JLINK_IsHalted()  returns FALSE (0001ms, 1514ms total)
T59B0 006:705 JLINK_IsHalted()  returns FALSE (0001ms, 1514ms total)
T59B0 006:981 JLINK_IsHalted()  returns FALSE (0000ms, 1513ms total)
T59B0 007:226 JLINK_IsHalted()  returns FALSE (0000ms, 1513ms total)
T59B0 007:483 JLINK_IsHalted()  returns FALSE (0001ms, 1514ms total)
T59B0 007:717 JLINK_IsHalted()  returns FALSE (0001ms, 1514ms total)
T59B0 007:998 JLINK_IsHalted()  returns FALSE (0000ms, 1513ms total)
T59B0 008:236 JLINK_IsHalted() -- CPU_ReadMem(2 bytes @ 0x20000000)  returns TRUE (0003ms, 1516ms total)
T59B0 008:239 JLINK_ReadReg(R15 (PC))  returns 0x20000000 (0001ms, 1514ms total)
T59B0 008:240 JLINK_ClrBPEx(BPHandle = 0x0000000D)  returns 0x00 (0000ms, 1514ms total)
T59B0 008:240 JLINK_ReadReg(R0)  returns 0x00000000 (0000ms, 1514ms total)
T59B0 008:242 JLINK_WriteReg(R0, 0x00000001)  returns 0x00 (0000ms, 1514ms total)
T59B0 008:242 JLINK_WriteReg(R1, 0x00020000)  returns 0x00 (0001ms, 1515ms total)
T59B0 008:243 JLINK_WriteReg(R2, 0x000000FF)  returns 0x00 (0000ms, 1515ms total)
T59B0 008:243 JLINK_WriteReg(R3, 0x00000000)  returns 0x00 (0000ms, 1515ms total)
T59B0 008:243 JLINK_WriteReg(R4, 0x00000000)  returns 0x00 (0000ms, 1515ms total)
T59B0 008:243 JLINK_WriteReg(R5, 0x00000000)  returns 0x00 (0000ms, 1515ms total)
T59B0 008:243 JLINK_WriteReg(R6, 0x00000000)  returns 0x00 (0001ms, 1516ms total)
T59B0 008:244 JLINK_WriteReg(R7, 0x00000000)  returns 0x00 (0000ms, 1516ms total)
T59B0 008:244 JLINK_WriteReg(R8, 0x00000000)  returns 0x00 (0000ms, 1516ms total)
T59B0 008:244 JLINK_WriteReg(R9, 0x2000017C)  returns 0x00 (0000ms, 1516ms total)
T59B0 008:244 JLINK_WriteReg(R10, 0x00000000)  returns 0x00 (0001ms, 1517ms total)
T59B0 008:245 JLINK_WriteReg(R11, 0x00000000)  returns 0x00 (0000ms, 1517ms total)
T59B0 008:245 JLINK_WriteReg(R12, 0x00000000)  returns 0x00 (0000ms, 1517ms total)
T59B0 008:245 JLINK_WriteReg(R13 (SP), 0x20000800)  returns 0x00 (0000ms, 1517ms total)
T59B0 008:245 JLINK_WriteReg(R14, 0x20000001)  returns 0x00 (0000ms, 1517ms total)
T59B0 008:245 JLINK_WriteReg(R15 (PC), 0x20000082)  returns 0x00 (0001ms, 1518ms total)
T59B0 008:246 JLINK_WriteReg(XPSR, 0x01000000)  returns 0x00 (0000ms, 1518ms total)
T59B0 008:246 JLINK_WriteReg(MSP, 0x20000800)  returns 0x00 (0000ms, 1518ms total)
T59B0 008:246 JLINK_WriteReg(PSP, 0x20000800)  returns 0x00 (0000ms, 1518ms total)
T59B0 008:246 JLINK_WriteReg(CFBP, 0x00000000)  returns 0x00 (0001ms, 1519ms total)
T59B0 008:247 JLINK_SetBPEx(Addr = 0x20000000, Type = 0xFFFFFFF2)  returns 0x0000000E (0000ms, 1519ms total)
T59B0 008:247 JLINK_Go() -- CPU_ReadMem(4 bytes @ 0xE0001000) (0002ms, 1521ms total)
T59B0 008:250 JLINK_IsHalted() -- CPU_ReadMem(2 bytes @ 0x20000000)  returns TRUE (0003ms, 1525ms total)
T59B0 008:253 JLINK_ReadReg(R15 (PC))  returns 0x20000000 (0001ms, 1523ms total)
T59B0 008:254 JLINK_ClrBPEx(BPHandle = 0x0000000E)  returns 0x00 (0000ms, 1523ms total)
T59B0 008:254 JLINK_ReadReg(R0)  returns 0x00000000 (0000ms, 1523ms total)
T59B0 008:363 JLINK_WriteMem(0x20000000, 0x0180 Bytes, ...) - Data: 00 BE 0A E0 0D 78 2D 06 68 40 08 24 40 00 00 D3 ... -- CPU_WriteMem(384 bytes @ 0x20000000)  returns 0x180 (0004ms, 1527ms total)
T59B0 008:367 JLINK_WriteReg(R0, 0x08000000)  returns 0x00 (0000ms, 1527ms total)
T59B0 008:367 JLINK_WriteReg(R1, 0x00B71B00)  returns 0x00 (0000ms, 1527ms total)
T59B0 008:368 JLINK_WriteReg(R2, 0x00000002)  returns 0x00 (0000ms, 1528ms total)
T59B0 008:368 JLINK_WriteReg(R3, 0x00000000)  returns 0x00 (0000ms, 1528ms total)
T59B0 008:368 JLINK_WriteReg(R4, 0x00000000)  returns 0x00 (0000ms, 1528ms total)
T59B0 008:368 JLINK_WriteReg(R5, 0x00000000)  returns 0x00 (0000ms, 1528ms total)
T59B0 008:368 JLINK_WriteReg(R6, 0x00000000)  returns 0x00 (0001ms, 1529ms total)
T59B0 008:369 JLINK_WriteReg(R7, 0x00000000)  returns 0x00 (0000ms, 1529ms total)
T59B0 008:369 JLINK_WriteReg(R8, 0x00000000)  returns 0x00 (0000ms, 1529ms total)
T59B0 008:369 JLINK_WriteReg(R9, 0x2000017C)  returns 0x00 (0000ms, 1529ms total)
T59B0 008:370 JLINK_WriteReg(R10, 0x00000000)  returns 0x00 (0000ms, 1529ms total)
T59B0 008:370 JLINK_WriteReg(R11, 0x00000000)  returns 0x00 (0000ms, 1529ms total)
T59B0 008:370 JLINK_WriteReg(R12, 0x00000000)  returns 0x00 (0000ms, 1529ms total)
T59B0 008:370 JLINK_WriteReg(R13 (SP), 0x20000800)  returns 0x00 (0000ms, 1529ms total)
T59B0 008:371 JLINK_WriteReg(R14, 0x20000001)  returns 0x00 (0000ms, 1529ms total)
T59B0 008:371 JLINK_WriteReg(R15 (PC), 0x20000054)  returns 0x00 (0000ms, 1529ms total)
T59B0 008:371 JLINK_WriteReg(XPSR, 0x01000000)  returns 0x00 (0000ms, 1529ms total)
T59B0 008:371 JLINK_WriteReg(MSP, 0x20000800)  returns 0x00 (0001ms, 1530ms total)
T59B0 008:372 JLINK_WriteReg(PSP, 0x20000800)  returns 0x00 (0000ms, 1530ms total)
T59B0 008:372 JLINK_WriteReg(CFBP, 0x00000000)  returns 0x00 (0000ms, 1530ms total)
T59B0 008:372 JLINK_SetBPEx(Addr = 0x20000000, Type = 0xFFFFFFF2) -- CPU_ReadMem(2 bytes @ 0x20000000)  returns 0x0000000F (0001ms, 1531ms total)
T59B0 008:373 JLINK_Go() -- CPU_WriteMem(2 bytes @ 0x20000000) -- CPU_ReadMem(4 bytes @ 0xE0001000) (0002ms, 1533ms total)
T59B0 008:375 JLINK_IsHalted() -- CPU_ReadMem(2 bytes @ 0x20000000)  returns TRUE (0004ms, 1537ms total)
T59B0 008:379 JLINK_ReadReg(R15 (PC))  returns 0x20000000 (0000ms, 1533ms total)
T59B0 008:379 JLINK_ClrBPEx(BPHandle = 0x0000000F)  returns 0x00 (0000ms, 1533ms total)
T59B0 008:379 JLINK_ReadReg(R0)  returns 0x00000000 (0000ms, 1533ms total)
T59B0 008:381 JLINK_WriteMem(0x20000180, 0x0400 Bytes, ...) - Data: 28 E6 00 20 71 9C 00 08 7D 31 00 08 A5 9F 00 08 ... -- CPU_WriteMem(1024 bytes @ 0x20000180)  returns 0x400 (0008ms, 1542ms total)
T59B0 008:389 JLINK_WriteReg(R0, 0x08000000)  returns 0x00 (0000ms, 1542ms total)
T59B0 008:389 JLINK_WriteReg(R1, 0x00000400)  returns 0x00 (0000ms, 1542ms total)
T59B0 008:389 JLINK_WriteReg(R2, 0x20000180)  returns 0x00 (0000ms, 1542ms total)
T59B0 008:390 JLINK_WriteReg(R3, 0x00000000)  returns 0x00 (0000ms, 1543ms total)
T59B0 008:390 JLINK_WriteReg(R4, 0x00000000)  returns 0x00 (0001ms, 1544ms total)
T59B0 008:391 JLINK_WriteReg(R5, 0x00000000)  returns 0x00 (0000ms, 1544ms total)
T59B0 008:391 JLINK_WriteReg(R6, 0x00000000)  returns 0x00 (0000ms, 1544ms total)
T59B0 008:391 JLINK_WriteReg(R7, 0x00000000)  returns 0x00 (0000ms, 1544ms total)
T59B0 008:391 JLINK_WriteReg(R8, 0x00000000)  returns 0x00 (0000ms, 1544ms total)
T59B0 008:391 JLINK_WriteReg(R9, 0x2000017C)  returns 0x00 (0000ms, 1544ms total)
T59B0 008:391 JLINK_WriteReg(R10, 0x00000000)  returns 0x00 (0001ms, 1545ms total)
T59B0 008:392 JLINK_WriteReg(R11, 0x00000000)  returns 0x00 (0000ms, 1545ms total)
T59B0 008:392 JLINK_WriteReg(R12, 0x00000000)  returns 0x00 (0000ms, 1545ms total)
T59B0 008:392 JLINK_WriteReg(R13 (SP), 0x20000800)  returns 0x00 (0000ms, 1545ms total)
T59B0 008:392 JLINK_WriteReg(R14, 0x20000001)  returns 0x00 (0001ms, 1546ms total)
T59B0 008:393 JLINK_WriteReg(R15 (PC), 0x20000108)  returns 0x00 (0000ms, 1546ms total)
T59B0 008:393 JLINK_WriteReg(XPSR, 0x01000000)  returns 0x00 (0000ms, 1546ms total)
T59B0 008:393 JLINK_WriteReg(MSP, 0x20000800)  returns 0x00 (0000ms, 1546ms total)
T59B0 008:393 JLINK_WriteReg(PSP, 0x20000800)  returns 0x00 (0001ms, 1547ms total)
T59B0 008:394 JLINK_WriteReg(CFBP, 0x00000000)  returns 0x00 (0000ms, 1547ms total)
T59B0 008:394 JLINK_SetBPEx(Addr = 0x20000000, Type = 0xFFFFFFF2)  returns 0x00000010 (0000ms, 1547ms total)
T59B0 008:394 JLINK_Go() -- CPU_ReadMem(4 bytes @ 0xE0001000) (0002ms, 1549ms total)
T59B0 008:397 JLINK_IsHalted()  returns FALSE (0001ms, 1551ms total)
T59B0 008:621 JLINK_IsHalted() -- CPU_ReadMem(2 bytes @ 0x20000000)  returns TRUE (0003ms, 1553ms total)
T59B0 008:624 JLINK_ReadReg(R15 (PC))  returns 0x20000000 (0000ms, 1550ms total)
T59B0 008:624 JLINK_ClrBPEx(BPHandle = 0x00000010)  returns 0x00 (0000ms, 1550ms total)
T59B0 008:624 JLINK_ReadReg(R0)  returns 0x00000000 (0001ms, 1551ms total)
T59B0 008:626 JLINK_WriteMem(0x20000180, 0x0400 Bytes, ...) - Data: 75 61 72 74 31 00 00 00 66 69 6E 73 68 20 69 6E ... -- CPU_WriteMem(1024 bytes @ 0x20000180)  returns 0x400 (0007ms, 1558ms total)
T59B0 008:633 JLINK_WriteReg(R0, 0x08000400)  returns 0x00 (0000ms, 1558ms total)
T59B0 008:634 JLINK_WriteReg(R1, 0x00000400)  returns 0x00 (0000ms, 1559ms total)
T59B0 008:634 JLINK_WriteReg(R2, 0x20000180)  returns 0x00 (0000ms, 1559ms total)
T59B0 008:634 JLINK_WriteReg(R3, 0x00000000)  returns 0x00 (0000ms, 1559ms total)
T59B0 008:634 JLINK_WriteReg(R4, 0x00000000)  returns 0x00 (0000ms, 1559ms total)
T59B0 008:634 JLINK_WriteReg(R5, 0x00000000)  returns 0x00 (0001ms, 1560ms total)
T59B0 008:635 JLINK_WriteReg(R6, 0x00000000)  returns 0x00 (0000ms, 1560ms total)
T59B0 008:635 JLINK_WriteReg(R7, 0x00000000)  returns 0x00 (0000ms, 1560ms total)
T59B0 008:635 JLINK_WriteReg(R8, 0x00000000)  returns 0x00 (0000ms, 1560ms total)
T59B0 008:635 JLINK_WriteReg(R9, 0x2000017C)  returns 0x00 (0001ms, 1561ms total)
T59B0 008:636 JLINK_WriteReg(R10, 0x00000000)  returns 0x00 (0000ms, 1561ms total)
T59B0 008:636 JLINK_WriteReg(R11, 0x00000000)  returns 0x00 (0000ms, 1561ms total)
T59B0 008:636 JLINK_WriteReg(R12, 0x00000000)  returns 0x00 (0000ms, 1561ms total)
T59B0 008:636 JLINK_WriteReg(R13 (SP), 0x20000800)  returns 0x00 (0001ms, 1562ms total)
T59B0 008:637 JLINK_WriteReg(R14, 0x20000001)  returns 0x00 (0000ms, 1562ms total)
T59B0 008:637 JLINK_WriteReg(R15 (PC), 0x20000108)  returns 0x00 (0000ms, 1562ms total)
T59B0 008:637 JLINK_WriteReg(XPSR, 0x01000000)  returns 0x00 (0000ms, 1562ms total)
T59B0 008:637 JLINK_WriteReg(MSP, 0x20000800)  returns 0x00 (0001ms, 1563ms total)
T59B0 008:638 JLINK_WriteReg(PSP, 0x20000800)  returns 0x00 (0000ms, 1563ms total)
T59B0 008:638 JLINK_WriteReg(CFBP, 0x00000000)  returns 0x00 (0000ms, 1563ms total)
T59B0 008:638 JLINK_SetBPEx(Addr = 0x20000000, Type = 0xFFFFFFF2)  returns 0x00000011 (0000ms, 1563ms total)
T59B0 008:638 JLINK_Go() -- CPU_ReadMem(4 bytes @ 0xE0001000) (0003ms, 1566ms total)
T59B0 008:641 JLINK_IsHalted()  returns FALSE (0001ms, 1567ms total)
